Freq (Hz)    Z_real (Ω)    Z_imag (Ω)    |Z| (Ω)     R_cal (Ω)  
-------------------------------------------------------
20000.0      117784.30      1524.49        117794.17    48000.00     0.74        
21000.0      117860.31      1547.77        117870.48    48000.00     0.75        
22000.0      117825.01      1855.61        117839.62    48000.00     0.90        
23000.0      118110.67      1965.80        118127.03    48000.00     0.95        
24000.0      118314.18      2099.59        118332.80    48000.00     1.02        
25000.0      118530.62      2153.33        118550.19    48000.00     1.04        
26000.0      118817.30      2245.27        118838.52    48000.00     1.08        
27000.0      118987.58      2276.00        119009.34    48000.00     1.10        
28000.0      119270.39      2339.75        119293.34    48000.00     1.12        
29000.0      119757.16      2510.90        119783.48    48000.00     1.20        
30000.0      119932.34      2260.17        119953.63    48000.00     1.08        
31000.0      119905.88      2537.42        119932.72    48000.00     1.21        
32000.0      120204.96      2503.25        120231.02    48000.00     1.19        
33000.0      120377.20      2485.37        120402.85    48000.00     1.18        
34000.0      120416.30      2320.00        120438.65    48000.00     1.10        
35000.0      120731.20      2373.69        120754.53    48000.00     1.13        
36000.0      121044.68      2511.77        121070.74    48000.00     1.19        
37000.0      121168.84      2206.60        121188.94    48000.00     1.04        
38000.0      121439.43      2291.27        121461.05    48000.00     1.08        
39000.0      121714.23      2209.95        121734.29    48000.00     1.04        
40000.0      121870.54      2224.88        121890.85    48000.00     1.05        
41000.0      122002.47      2004.87        122018.94    48000.00     0.94        
42000.0      122181.22      1816.38        122194.72    48000.00     0.85        
43000.0      122427.52      1912.68        122442.47    48000.00     0.90        
44000.0      122616.38      1818.24        122629.86    48000.00     0.85        
45000.0      122801.84      1588.67        122812.12    48000.00     0.74        
46000.0      122902.21      1620.50        122912.89    48000.00     0.76        
47000.0      123078.92      1394.43        123086.81    48000.00     0.65        
48000.0      123271.68      1320.86        123278.76    48000.00     0.61        
49000.0      123583.63      1098.47        123588.51    48000.00     0.51        
50000.0      123608.55      939.67         123612.12    48000.00     0.44        
51000.0      123402.10      456.47         123402.94    48000.00     0.21        
52000.0      123929.18      761.23         123931.52    48000.00     0.35        
53000.0      124023.34      768.36         124025.73    48000.00     0.35        
54000.0      124074.06      324.10         124074.48    48000.00     0.15        
55000.0      124402.00      408.62         124402.67    48000.00     0.19        
56000.0      124421.30      191.47         124421.45    48000.00     0.09        
57000.0      124552.12      -66.59         124552.13    48000.00     -0.03       
58000.0      124844.24      -279.05        124844.56    48000.00     -0.13       
59000.0      124739.84      -261.69        124740.12    48000.00     -0.12       
60000.0      124876.43      -480.97        124877.35    48000.00     -0.22       
61000.0      125095.92      -628.85        125097.49    48000.00     -0.29       
62000.0      125256.29      -755.73        125258.57    48000.00     -0.35       
63000.0      125236.29      -925.55        125239.71    48000.00     -0.42       
64000.0      125346.53      -1106.58       125351.42    48000.00     -0.51       
65000.0      125562.64      -1338.82       125569.78    48000.00     -0.61       
66000.0      125606.58      -1494.89       125615.48    48000.00     -0.68       
67000.0      125715.52      -1602.71       125725.74    48000.00     -0.73       
68000.0      125799.55      -1781.88       125812.16    48000.00     -0.81       
69000.0      125888.12      -1724.54       125899.93    48000.00     -0.78       
70000.0      125913.22      -2085.81       125930.49    48000.00     -0.95       
71000.0      126089.74      -2348.48       126111.61    48000.00     -1.07       
72000.0      126051.91      -2521.28       126077.12    48000.00     -1.15       
73000.0      126256.94      -2578.10       126283.26    48000.00     -1.17       
74000.0      126381.43      -2882.53       126414.30    48000.00     -1.31       
75000.0      126338.02      -3029.17       126374.34    48000.00     -1.37       
76000.0      126522.98      -3121.01       126561.47    48000.00     -1.41       
77000.0      126530.60      -3149.21       126569.79    48000.00     -1.43       
78000.0      126640.98      -3567.06       126691.20    48000.00     -1.61       
79000.0      126833.30      -3549.17       126882.94    48000.00     -1.60       
80000.0      126785.82      -3760.57       126841.58    48000.00     -1.70       
=======================================================
please change to DUT