freq,   zmag(ohm), zphase(deg), zreal(ohm), zimag(ohm)
     10000    117702.86     -0.432    117699.52      -887.76
     11000    117760.93     -0.452    117757.26      -929.07
     12000    117692.23     -0.457    117688.48      -938.71
     13000    117731.48     -0.494    117727.11     -1015.59
     14000    117656.08     -0.542    117650.83     -1112.66
     15000    117682.63     -0.608    117676.01     -1248.48
     16000    117706.82     -0.604    117700.28     -1240.87
     17000    117652.30     -0.682    117643.97     -1400.64
     18000    117722.74     -0.723    117713.37     -1484.94
     19000    117813.68     -0.736    117803.94     -1514.29
     20000    117708.39     -0.783    117697.42     -1607.67
     21000    117620.94     -0.835    117608.48     -1713.07
     22000    117638.58     -0.891    117624.36     -1829.66
     23000    117656.13     -0.869    117642.60     -1784.04
     24000    117601.34     -0.944    117585.38     -1937.28
     25000    117633.40     -0.971    117616.50     -1993.58
     26000    117605.91     -1.024    117587.13     -2101.08
     27000    117435.33     -1.103    117413.56     -2260.97
     28000    117619.36     -1.120    117596.90     -2298.68
     29000    117541.79     -1.152    117518.02     -2363.96
     30000    117643.78     -1.182    117618.76     -2426.02
     31000    117580.21     -1.270    117551.33     -2606.04
     32000    117444.62     -1.249    117416.72     -2560.02
     33000    117473.81     -1.286    117444.23     -2636.28
     34000    117511.45     -1.371    117477.83     -2810.96
     35000    117498.91     -1.332    117467.16     -2731.41
     36000    117636.57     -1.416    117600.66     -2906.65
     37000    117433.74     -1.535    117391.59     -3145.52
     38000    117598.84     -1.516    117557.68     -3111.15
     39000    117450.18     -1.484    117410.80     -3040.79
     40000    117362.85     -1.496    117322.85     -3063.85
     41000    117319.09     -1.627    117271.82     -3330.07
     42000    117290.44     -1.616    117243.77     -3308.40
     43000    117179.53     -1.666    117129.97     -3407.76
     44000    117458.92     -1.664    117409.39     -3410.51
     45000    117435.78     -1.724    117382.62     -3533.32
     46000    117351.42     -1.809    117292.92     -3704.89
     47000    117301.79     -1.776    117245.47     -3634.45
     48000    117278.55     -1.866    117216.38     -3818.35
     49000    117335.01     -1.824    117275.52     -3735.55
     50000    117358.06     -1.947    117290.29     -3988.00
     51000    117405.43     -1.900    117340.90     -3892.31
     52000    117296.62     -1.974    117227.02     -4040.10
     53000    117280.04     -2.002    117208.43     -4097.69
     54000    117160.97     -2.052    117085.84     -4195.25
     55000    117273.55     -2.111    117193.98     -4319.12
     56000    117205.83     -2.108    117126.51     -4311.19
     57000    117048.56     -2.171    116964.56     -4433.54
     58000    117339.34     -2.222    117251.12     -4549.56
     59000    117146.80     -2.218    117059.03     -4533.72
     60000    117163.94     -2.314    117068.44     -4729.68
     61000    117074.25     -2.349    116975.85     -4798.94
     62000    117021.63     -2.306    116926.90     -4707.74
     63000    117139.12     -2.363    117039.52     -4829.47
     64000    117176.95     -2.385    117075.41     -4877.23
     65000    117057.64     -2.445    116951.11     -4992.78
     66000    117020.48     -2.487    116910.30     -5076.96
     67000    117120.15     -2.569    117002.44     -5249.58
     68000    117083.94     -2.502    116972.28     -5112.23
     69000    116937.67     -2.625    116814.93     -5356.43
     70000    116950.44     -2.624    116827.84     -5353.45
     71000    116984.28     -2.644    116859.79     -5395.60
     72000    116844.29     -2.729    116711.75     -5563.84
     73000    116916.36     -2.740    116782.72     -5588.49
     74000    116910.79     -2.769    116774.28     -5647.91
     75000    116916.06     -2.836    116772.92     -5783.92
     76000    116938.26     -2.754    116803.24     -5617.94
     77000    116866.56     -2.883    116718.67     -5877.32
     78000    116921.71     -2.906    116771.39     -5926.94
     79000    116846.34     -2.923    116694.31     -5958.68
     80000    116722.64     -3.005    116562.16     -6118.54
     81000    116700.34     -3.016    116538.69     -6140.38
     82000    116682.01     -3.041    116517.65     -6190.97
     83000    116802.85     -3.059    116636.38     -6233.81
     84000    116549.95     -3.172    116371.38     -6449.31
     85000    116743.35     -3.188    116562.68     -6492.36
     86000    116520.98     -3.343    116322.72     -6794.35
     87000    116617.87     -3.235    116432.08     -6580.10
     88000    116589.44     -3.269    116399.77     -6647.62
     89000    116586.76     -3.325    116390.44     -6763.00
     90000    116350.95     -3.355    116151.54     -6809.08
     91000    116379.71     -3.386    116176.52     -6874.22
     92000    116439.55     -3.396    116235.09     -6897.18
     93000    116426.24     -3.400    116221.33     -6904.32
     94000    116484.46     -3.485    116269.06     -7080.70
     95000    116333.01     -3.488    116117.47     -7078.22
     96000    116441.04     -3.591    116212.43     -7292.94
     97000    116382.53     -3.573    116156.28     -7253.36
     98000    116389.98     -3.570    116164.07     -7248.29
     99000    116431.19     -3.653    116194.58     -7418.99
