freq,   zmag(ohm), zphase(deg), zreal(ohm), zimag(ohm)
     10000    145096.92     -0.688    145086.47     -1741.12
     11000    145281.17     -0.776    145267.84     -1968.28
     12000    145171.39     -0.760    145158.61     -1926.09
     13000    145230.50     -0.813    145215.89     -2060.09
     14000    145110.47     -0.897    145092.67     -2272.79
     15000    145107.00     -1.022    145083.92     -2587.62
     16000    145112.42     -0.992    145090.67     -2511.90
     17000    145125.12     -1.135    145096.67     -2873.56
     18000    145181.53     -1.176    145150.94     -2980.26
     19000    145216.74     -1.211    145184.30     -3068.75
     20000    145108.32     -1.288    145071.64     -3262.25
     21000    144748.02     -1.356    144707.48     -3424.74
     22000    144988.98     -1.435    144943.48     -3631.98
     23000    144960.82     -1.450    144914.38     -3669.13
     24000    144870.08     -1.488    144821.24     -3761.63
     25000    144991.97     -1.598    144935.54     -4044.23
     26000    144930.17     -1.672    144868.46     -4229.06
     27000    144786.48     -1.782    144716.48     -4501.98
     28000    144860.44     -1.787    144790.02     -4516.47
     29000    144943.84     -1.844    144868.82     -4663.33
     30000    144896.88     -1.903    144816.97     -4811.37
     31000    144869.82     -2.044    144777.66     -5166.47
     32000    144728.74     -2.063    144634.94     -5209.70
     33000    144738.54     -2.119    144639.53     -5352.94
     34000    144585.66     -2.225    144476.64     -5613.42
     35000    144837.96     -2.246    144726.67     -5676.43
     36000    144719.24     -2.407    144591.53     -6078.50
     37000    144548.68     -2.327    144429.52     -5868.47
     38000    144735.66     -2.510    144596.83     -6337.76
     39000    144616.53     -2.476    144481.53     -6247.32
     40000    144498.25     -2.576    144352.24     -6494.46
     41000    144544.64     -2.665    144388.33     -6720.34
     42000    144474.25     -2.733    144309.94     -6888.45
     43000    144350.12     -2.777    144180.62     -6993.23
     44000    144531.67     -2.815    144357.32     -7097.33
     45000    144584.92     -2.798    144412.61     -7056.80
     46000    144388.17     -3.011    144188.83     -7584.70
     47000    144416.14     -2.926    144227.83     -7372.71
     48000    144285.94     -3.050    144081.52     -7677.65
     49000    144504.52     -3.053    144299.48     -7695.03
     50000    144306.68     -3.179    144084.60     -8003.06
     51000    144425.83     -3.177    144203.92     -8003.13
     52000    144311.47     -3.297    144072.64     -8298.96
     53000    144284.56     -3.247    144052.98     -8171.40
     54000    144057.90     -3.507    143788.08     -8812.99
     55000    144152.00     -3.535    143877.66     -8889.38
     56000    144293.10     -3.550    144016.26     -8933.68
     57000    144034.02     -3.589    143751.58     -9015.63
     58000    144249.00     -3.646    143957.12     -9171.87
     59000    144028.92     -3.719    143725.64     -9341.97
     60000    144012.64     -3.776    143699.97     -9484.78
     61000    143744.84     -3.852    143420.10     -9657.06
     62000    143904.04     -3.865    143576.67     -9701.20
     63000    143893.75     -3.885    143563.14     -9748.70
     64000    143936.61     -3.979    143589.74     -9986.77
     65000    144008.03     -4.083    143642.48    -10254.28
     66000    143665.53     -4.126    143293.14    -10337.34
     67000    143828.44     -4.170    143447.64    -10459.16
     68000    143887.67     -4.228    143496.10    -10608.12
     69000    143583.47     -4.280    143182.97    -10716.75
     70000    143671.08     -4.378    143251.86    -10967.51
     71000    143593.10     -4.465    143157.22    -11179.80
     72000    143584.72     -4.558    143130.67    -11409.72
     73000    143594.66     -4.521    143147.86    -11318.80
     74000    143457.82     -4.603    142995.14    -11512.31
     75000    143380.00     -4.730    142891.61    -11824.26
     76000    143241.11     -4.644    142770.89    -11596.84
     77000    143361.64     -4.787    142861.62    -11963.11
     78000    143375.10     -4.953    142839.82    -12377.65
     79000    143192.58     -4.841    142681.74    -12084.61
     80000    143277.62     -4.940    142745.40    -12338.07
     81000    143024.60     -5.030    142473.75    -12540.59
     82000    143220.38     -5.068    142660.52    -12651.19
     83000    143065.76     -5.108    142497.54    -12738.23
     84000    143012.96     -5.206    142422.96    -12977.12
     85000    142981.10     -5.190    142394.94    -12933.42
     86000    142873.06     -5.372    142245.42    -13377.25
     87000    142741.83     -5.349    142120.28    -13306.10
     88000    142843.89     -5.405    142208.76    -13455.21
     89000    142763.42     -5.549    142094.53    -13803.66
     90000    142600.46     -5.531    141936.58    -13743.98
     91000    142673.74     -5.654    141979.74    -14055.29
     92000    142500.10     -5.696    141796.54    -14142.72
     93000    142560.75     -5.703    141855.06    -14167.24
     94000    142534.86     -5.803    141804.47    -14411.02
     95000    142225.08     -5.869    141479.50    -14543.82
     96000    142351.86     -5.953    141584.10    -14764.70
     97000    142309.04     -5.994    141531.08    -14859.94
     98000    142244.60     -5.993    141467.28    -14850.41
     99000    142464.42     -6.083    141662.16    -15097.92