freq,   zmag(ohm), zphase(deg), zreal(ohm), zimag(ohm)
     10000    175192.54     -0.989    175166.46     -3023.29
     11000    175264.54     -1.041    175235.62     -3183.23
     12000    175165.58     -1.111    175132.62     -3397.37
     13000    175223.66     -1.158    175187.84     -3542.50
     14000    175163.00     -1.269    175120.06     -3878.07
     15000    175190.04     -1.388    175138.64     -4242.71
     16000    175078.86     -1.447    175023.04     -4420.24
     17000    175110.10     -1.554    175045.68     -4749.11
     18000    175205.92     -1.657    175132.68     -5065.11
     19000    175354.30     -1.772    175270.44     -5422.60
     20000    174820.80     -1.794    174735.06     -5474.40
     21000    174662.08     -1.876    174568.48     -5717.08
     22000    175031.68     -1.967    174928.60     -6006.74
     23000    174926.94     -2.043    174815.76     -6235.49
     24000    174774.76     -2.112    174655.96     -6442.44
     25000    174743.34     -2.163    174618.78     -6596.51
     26000    174755.16     -2.342    174609.16     -7141.54
     27000    174679.20     -2.457    174518.66     -7487.48
     28000    174726.26     -2.534    174555.44     -7724.31
     29000    174620.18     -2.567    174444.96     -7821.06
     30000    174628.28     -2.680    174437.26     -8165.42
     31000    174660.46     -2.832    174447.10     -8630.49
     32000    174540.40     -2.859    174323.12     -8706.52
     33000    174542.10     -2.910    174317.02     -8861.53
     34000    174297.60     -3.082    174045.52     -9370.84
     35000    174462.18     -3.073    174211.40     -9351.17
     36000    174387.74     -3.320    174094.98    -10100.35
     37000    174227.74     -3.322    173934.96    -10096.01
     38000    174309.08     -3.451    173992.94    -10493.37
     39000    174312.66     -3.472    173992.82    -10555.09
     40000    174040.18     -3.536    173708.76    -10735.54
     41000    174078.66     -3.690    173717.72    -11204.11
     42000    174002.04     -3.707    173638.00    -11249.77
     43000    173899.60     -3.807    173515.86    -11546.40
     44000    174219.68     -3.836    173829.42    -11654.69
     45000    174047.40     -3.986    173626.40    -12098.02
     46000    174003.10     -4.137    173549.64    -12553.94
     47000    173831.92     -4.165    173372.84    -12625.38
     48000    173787.84     -4.238    173312.68    -12842.35
     49000    173881.96     -4.302    173392.04    -13043.73
     50000    173836.72     -4.442    173314.52    -13464.21
     51000    173842.10     -4.497    173306.94    -13630.20
     52000    173687.36     -4.621    173122.68    -13994.04
     53000    173579.96     -4.684    173000.34    -14173.56
     54000    173226.16     -4.834    172610.02    -14597.54
     55000    173416.00     -4.867    172790.84    -14711.95
     56000    173584.36     -4.973    172930.94    -15047.28
     57000    173207.54     -4.999    172548.76    -15092.29
     58000    173377.96     -5.074    172698.60    -15333.24
     59000    173231.30     -5.239    172507.62    -15817.66
     60000    173108.54     -5.314    172364.54    -16032.29
     61000    172862.34     -5.356    172107.60    -16135.71
     62000    172755.98     -5.503    171959.76    -16567.30
     63000    172930.78     -5.477    172141.28    -16505.60
     64000    173047.84     -5.597    172222.78    -16878.14
     65000    172842.18     -5.716    171982.88    -17213.63
     66000    172842.98     -5.765    171968.84    -17361.23
     67000    172676.14     -5.909    171758.72    -17776.15
     68000    172710.76     -6.015    171759.76    -18099.61
     69000    172601.08     -6.058    171637.28    -18214.81
     70000    172353.54     -6.144    171363.42    -18447.74
     71000    172334.72     -6.246    171311.66    -18750.16
     72000    172398.84     -6.325    171349.30    -18994.02
     73000    172200.44     -6.326    171151.90    -18974.20
     74000    171937.48     -6.471    170841.96    -19378.35
     75000    172026.62     -6.563    170899.32    -19661.79
     76000    171905.40     -6.586    170770.86    -19717.56
     77000    171833.16     -6.725    170650.76    -20123.27
     78000    171587.10     -6.765    170392.60    -20211.38
     79000    171791.34     -6.917    170540.96    -20689.19
     80000    171568.26     -7.055    170269.40    -21071.18
     81000    171383.98     -7.111    170065.62    -21216.79
     82000    171407.32     -7.181    170062.90    -21426.03
     83000    171645.90     -7.171    170303.20    -21427.27
     84000    171203.96     -7.272    169826.68    -21672.33
     85000    171218.62     -7.430    169780.96    -22141.32
     86000    171175.42     -7.488    169715.70    -22307.10
     87000    171143.04     -7.567    169652.70    -22536.74
     88000    170782.98     -7.641    169266.66    -22707.43
     89000    170717.30     -7.682    169185.10    -22820.92
     90000    170404.76     -7.742    168851.62    -22954.55
     91000    170457.32     -7.873    168850.64    -23348.57
     92000    170415.14     -7.936    168783.12    -23528.15
     93000    170547.50     -7.986    168893.66    -23693.33
     94000    170536.60     -8.132    168821.70    -24123.94
     95000    170181.78     -8.145    168465.16    -24110.70
     96000    170097.88     -8.251    168337.30    -24409.86
     97000    170089.02     -8.391    168268.16    -24821.40
     98000    169977.34     -8.320    168188.56    -24594.68
     99000    169984.56     -8.496    168119.02    -25114.68