freq,   zmag(ohm), zphase(deg), zreal(ohm), zimag(ohm)
     10000    264092.94     -1.845    263956.00     -8503.70
     11000    264642.16     -2.080    264467.72     -9606.81
     12000    263683.70     -2.028    263518.56     -9330.26
     13000    263687.60     -2.184    263496.06    -10048.87
     14000    263866.22     -2.490    263617.14    -11462.35
     15000    263857.44     -2.611    263583.56    -12018.92
     16000    263291.64     -2.629    263014.50    -12076.86
     17000    263425.28     -2.996    263065.28    -13767.22
     18000    263536.22     -3.124    263144.50    -14363.55
     19000    263810.76     -3.223    263393.54    -14830.93
     20000    262982.60     -3.338    262536.34    -15313.82
     21000    262453.34     -3.598    261936.00    -16470.94
     22000    263107.72     -3.778    262535.96    -17335.73
     23000    263017.30     -3.895    262409.80    -17865.88
     24000    262782.86     -4.033    262132.06    -18483.07
     25000    262105.78     -4.219    261395.48    -19283.21
     26000    262416.26     -4.408    261639.94    -20169.88
     27000    262349.90     -4.537    261527.84    -20752.32
     28000    261922.50     -4.828    260993.04    -22045.88
     29000    262012.94     -4.948    261036.40    -22600.41
     30000    261814.70     -5.039    260802.64    -22998.20
     31000    262060.96     -5.279    260949.32    -24112.51
     32000    261656.46     -5.485    260458.62    -25008.23
     33000    261554.16     -5.634    260290.54    -25679.22
     34000    261525.34     -5.769    260200.70    -26288.83
     35000    261498.32     -5.879    260122.96    -26784.66
     36000    261202.42     -6.182    259683.72    -28125.87
     37000    260658.54     -6.348    259060.20    -28821.51
     38000    261559.38     -6.418    259920.04    -29238.37
     39000    260563.00     -6.540    258867.66    -29675.15
     40000    260371.68     -6.791    258545.14    -30786.88
     41000    260453.82     -6.919    258557.06    -31375.76
     42000    259860.60     -7.015    257915.42    -31735.89
     43000    259397.96     -7.337    257274.34    -33124.28
     44000    259978.20     -7.407    257808.84    -33515.26
     45000    259982.28     -7.579    257711.20    -34288.86
     46000    259217.94     -7.822    256806.10    -35278.46
     47000    259364.08     -7.943    256875.60    -35841.91
     48000    259043.42     -8.189    256402.32    -36896.46
     49000    258954.46     -8.168    256327.26    -36793.34
     50000    258693.16     -8.450    255884.68    -38015.50
     51000    258785.32     -8.475    255959.62    -38137.98
     52000    258365.16     -8.671    255412.48    -38949.04
     53000    258864.16     -8.868    255769.86    -39905.29
     54000    257909.74     -9.075    254681.20    -40680.59
     55000    257833.16     -9.199    254517.54    -41216.14
     56000    257559.94     -9.414    254091.00    -42129.38
     57000    256840.98     -9.470    253341.04    -42256.48
     58000    256810.88     -9.513    253279.34    -42443.03
     59000    256821.50     -9.899    252998.04    -44150.52
     60000    256620.18    -10.052    252681.00    -44790.98
     61000    255404.20    -10.280    251304.10    -45580.29
     62000    256036.60    -10.414    251819.02    -46280.87
     63000    255594.12    -10.405    251391.44    -46159.54
     64000    255692.96    -10.585    251342.14    -46968.20
     65000    255441.28    -10.887    250843.60    -48246.56
     66000    254941.42    -10.872    250365.32    -48086.78
     67000    254692.98    -11.090    249936.52    -48992.46
     68000    254984.34    -11.252    250083.56    -49751.68
     69000    254277.44    -11.461    249206.84    -50527.00
     70000    253861.50    -11.520    248747.32    -50699.52
     71000    253650.06    -11.800    248289.94    -51869.72
     72000    253145.96    -11.939    247670.46    -52366.20
     73000    253210.50    -11.994    247683.20    -52617.43
     74000    252639.46    -12.099    247027.74    -52952.77
     75000    252695.74    -12.377    246822.70    -54163.57
     76000    252190.96    -12.494    246218.52    -54559.33
     77000    251937.38    -12.588    245881.54    -54906.40
     78000    251672.50    -12.838    245380.82    -55922.33
     79000    251501.84    -13.018    245038.56    -56650.48
     80000    251349.84    -13.045    244863.02    -56734.82
     81000    250809.76    -13.204    244178.98    -57290.20
     82000    250512.50    -13.385    243707.24    -57993.92
     83000    250829.90    -13.493    243906.20    -58526.96
     84000    249803.70    -13.690    242707.28    -59119.10
     85000    249565.56    -13.824    242336.84    -59630.80
     86000    249095.60    -14.006    241689.66    -60288.78
     87000    248414.34    -14.133    240895.02    -60657.02
     88000    248705.56    -14.268    241034.30    -61293.72
     89000    247915.60    -14.338    240193.40    -61394.34
     90000    247474.34    -14.491    239601.06    -61926.34
     91000    247619.30    -14.729    239482.34    -62956.54
     92000    247361.66    -14.881    239065.66    -63524.84
     93000    247065.54    -14.898    238760.34    -63520.69
     94000    246554.22    -15.162    237971.44    -64487.04
     95000    246081.60    -15.214    237457.48    -64576.25
     96000    246259.56    -15.445    237365.88    -65583.64
     97000    245022.40    -15.606    235989.54    -65915.92
     98000    245136.86    -15.630    236072.56    -66044.08
     99000    244815.00    -15.784    235583.70    -66593.55